
T1DE8 000:003 SEGGER J-Link V6.16c Log File (0000ms, 0003ms total)
T1DE8 000:003 DLL Compiled: Jun 16 2017 18:14:49 (0000ms, 0003ms total)
T1DE8 000:003 Logging started @ 2018-02-11 11:31 (0000ms, 0003ms total)
T1DE8 000:003 JLINK_SetWarnOutHandler(...) (0000ms, 0003ms total)
T1DE8 000:003 JLINK_OpenEx(...)
Firmware: J-Link V9 compiled Mar 29 2016 18:46:37
Hardware: V9.20
S/N: 29999997
Feature(s): GDB, RDI, FlashBP, FlashDL, JFlash, RDDIWEBSRV Webserver running on local port 19080 (1690ms, 1693ms total)
T1DE8 000:003   returns O.K. (1690ms, 1693ms total)
T1DE8 001:694 JLINK_GetEmuCaps()  returns 0xB9FF7BBF (0000ms, 1693ms total)
T1DE8 001:694 JLINK_TIF_GetAvailable(...) (0002ms, 1695ms total)
T1DE8 001:696 JLINK_SetErrorOutHandler(...) (0000ms, 1695ms total)
T1DE8 001:696 JLINK_ExecCommand("ProjectFile = "E:\工作_01\上海红相电力_激光叉车项目（正）\叉车部分\STM32程序\导航板\NavigationBoard_V9_20180209_Test\project\JLinkSettings.ini"", ...).   returns 0x00 (0160ms, 1855ms total)
T1DE8 001:860 JLINK_ExecCommand("Device = STM32F103CB", ...). Device "STM32F103CB" selected.  returns 0x00 (0004ms, 1859ms total)
T1DE8 001:864 JLINK_ExecCommand("DisableConnectionTimeout", ...).   returns 0x01 (0000ms, 1859ms total)
T1DE8 001:864 JLINK_GetHardwareVersion()  returns 0x16760 (0000ms, 1859ms total)
T1DE8 001:865 JLINK_GetDLLVersion()  returns 61603 (0000ms, 1860ms total)
T1DE8 001:865 JLINK_GetFirmwareString(...) (0000ms, 1860ms total)
T1DE8 001:874 JLINK_GetDLLVersion()  returns 61603 (0000ms, 1860ms total)
T1DE8 001:874 JLINK_GetCompileDateTime() (0000ms, 1860ms total)
T1DE8 001:875 JLINK_GetFirmwareString(...) (0000ms, 1860ms total)
T1DE8 001:877 JLINK_GetHardwareVersion()  returns 0x16760 (0000ms, 1860ms total)
T1DE8 001:884 JLINK_TIF_Select(JLINKARM_TIF_SWD)  returns 0x00 (0004ms, 1864ms total)
T1DE8 001:888 JLINK_SetSpeed(5000) (0001ms, 1865ms total)
T1DE8 001:889 JLINK_GetId() >0x10B TIF>Found SW-DP with ID 0x1BA01477 >0x0D TIF> >0x28 TIF> >0x0D TIF> >0x28 TIF> >0x0D TIF> >0x28 TIF> >0x0D TIF> >0x28 TIF> >0x0D TIF> >0x21 TIF> >0x0D TIF> >0x28 TIF> >0x0D TIF> >0x28 TIF> >0x0D TIF> >0x28 TIF> >0x0D TIF> >0x21 TIF> >0x0D TIF> >0x21 TIF> >0x0D TIF> >0x28 TIF> >0x0D TIF> >0x21 TIF> >0x0D TIF> >0x21 TIF> >0x0D TIF> >0x28 TIF> >0x0D TIF> >0x21 TIF> >0x0D TIF> >0x21 TIF> >0x0D TIF> >0x28 TIF> >0x0D TIF> >0x21 TIF> >0x0D TIF> >0x21 TIF> >0x0D TIF> >0x28 TIF>
 >0x0D TIF> >0x21 TIF> >0x0D TIF> >0x21 TIF> >0x0D TIF> >0x28 TIF> >0x0D TIF> >0x21 TIF> >0x0D TIF> >0x21 TIF> >0x0D TIF> >0x28 TIF> >0x0D TIF> >0x21 TIF> >0x0D TIF> >0x21 TIF> >0x10B TIF>Found SW-DP with ID 0x1BA01477 >0x0D TIF> >0x28 TIF> >0x0D TIF> >0x28 TIF> >0x0D TIF> >0x28 TIF> >0x0D TIF> >0x28 TIF> >0x0D TIF> >0x21 TIF> >0x0D TIF> >0x28 TIF>Scanning APs, stopping at first AHB-AP found. >0x0D TIF> >0x28 TIF> >0x0D TIF> >0x21 TIF> >0x0D TIF> >0x21 TIF>AP[0] IDR: 0x14770011 (AHB-AP) >0x0D TIF>
 >0x28 TIF> >0x0D TIF> >0x21 TIF> >0x0D TIF> >0x21 TIF>AHB-AP ROM: 0xE00FF000 (Base addr. of first ROM table) >0x0D TIF> >0x28 TIF> >0x0D TIF> >0x28 TIF> >0x0D TIF> >0x28 TIF> >0x0D TIF> >0x21 TIF> >0x0D TIF> >0x21 TIF> >0x0D TIF> >0x28 TIF> >0x0D TIF> >0x21 TIF> >0x0D TIF> >0x21 TIF>CPUID reg: 0x411FC231. Implementer code: 0x41 (ARM)Found Cortex-M3 r1p1, Little endian. -- CPU_ReadMem(4 bytes @ 0xE000EDF0) -- CPU_ReadMem(4 bytes @ 0xE0002000)FPUnit: 6 code (BP) slots and 2 literal slots
 -- CPU_ReadMem(4 bytes @ 0xE000EDFC) -- CPU_ReadMem(4 bytes @ 0xE0001000) -- CPU_WriteMem(4 bytes @ 0xE0001000) -- CPU_ReadMem(4 bytes @ 0xE000ED88) -- CPU_WriteMem(4 bytes @ 0xE000ED88) -- CPU_ReadMem(4 bytes @ 0xE000ED88) -- CPU_WriteMem(4 bytes @ 0xE000ED88)CoreSight components:ROMTbl[0] @ E00FF000 -- CPU_ReadMem(16 bytes @ 0xE00FF000) -- CPU_ReadMem(16 bytes @ 0xE000EFF0) -- CPU_ReadMem(16 bytes @ 0xE000EFE0)ROMTbl[0][0]: E000E000, CID: B105E00D, PID: 001BB000 SCS
 -- CPU_ReadMem(16 bytes @ 0xE0001FF0) -- CPU_ReadMem(16 bytes @ 0xE0001FE0)ROMTbl[0][1]: E0001000, CID: B105E00D, PID: 001BB002 DWT -- CPU_ReadMem(16 bytes @ 0xE0002FF0) -- CPU_ReadMem(16 bytes @ 0xE0002FE0)ROMTbl[0][2]: E0002000, CID: B105E00D, PID: 000BB003 FPB -- CPU_ReadMem(16 bytes @ 0xE0000FF0) -- CPU_ReadMem(16 bytes @ 0xE0000FE0)ROMTbl[0][3]: E0000000, CID: B105E00D, PID: 001BB001 ITM -- CPU_ReadMem(16 bytes @ 0xE00FF010) -- CPU_ReadMem(16 bytes @ 0xE0040FF0)
 -- CPU_ReadMem(16 bytes @ 0xE0040FE0)ROMTbl[0][4]: E0040000, CID: B105900D, PID: 001BB923 TPIU-Lite >0x0D TIF> >0x21 TIF>  returns 0x1BA01477 (0186ms, 2051ms total)
T1DE8 002:075 JLINK_GetDLLVersion()  returns 61603 (0000ms, 2051ms total)
T1DE8 002:075 JLINK_CORE_GetFound()  returns 0x30000FF (0000ms, 2051ms total)
T1DE8 002:075 JLINK_GetDebugInfo(0x100 = JLINKARM_ROM_TABLE_ADDR_INDEX) -- Value=0xE00FF000  returns 0x00 (0000ms, 2051ms total)
T1DE8 002:078 JLINK_GetDebugInfo(0x100 = JLINKARM_ROM_TABLE_ADDR_INDEX) -- Value=0xE00FF000  returns 0x00 (0000ms, 2051ms total)
T1DE8 002:078 JLINK_GetDebugInfo(0x101 = JLINKARM_DEBUG_INFO_ETM_ADDR_INDEX) -- Value=0x00000000  returns 0x00 (0001ms, 2052ms total)
T1DE8 002:079 JLINK_ReadMemEx(0xE0041FF0, 0x0010 Bytes, ..., Flags = 0x02000004) -- CPU_ReadMem(16 bytes @ 0xE0041FF0) - Data: 00 00 00 00 00 00 00 00 00 00 00 00 00 00 00 00  returns 0x10 (0001ms, 2053ms total)
T1DE8 002:080 JLINK_GetDebugInfo(0x102 = JLINKARM_DEBUG_INFO_MTB_ADDR_INDEX) -- Value=0x00000000  returns 0x00 (0000ms, 2053ms total)
T1DE8 002:080 JLINK_GetDebugInfo(0x103 = JLINKARM_DEBUG_INFO_TPIU_ADDR_INDEX) -- Value=0xE0040000  returns 0x00 (0000ms, 2053ms total)
T1DE8 002:080 JLINK_GetDebugInfo(0x104 = JLINKARM_DEBUG_INFO_ITM_ADDR_INDEX) -- Value=0xE0000000  returns 0x00 (0000ms, 2053ms total)
T1DE8 002:080 JLINK_GetDebugInfo(0x105 = JLINKARM_DEBUG_INFO_DWT_ADDR_INDEX) -- Value=0xE0001000  returns 0x00 (0000ms, 2053ms total)
T1DE8 002:080 JLINK_GetDebugInfo(0x106 = JLINKARM_DEBUG_INFO_FPB_ADDR_INDEX) -- Value=0xE0002000  returns 0x00 (0001ms, 2054ms total)
T1DE8 002:081 JLINK_GetDebugInfo(0x107 = JLINKARM_DEBUG_INFO_NVIC_ADDR_INDEX) -- Value=0xE000E000  returns 0x00 (0000ms, 2054ms total)
T1DE8 002:081 JLINK_GetDebugInfo(0x10C = JLINKARM_DEBUG_INFO_DBG_ADDR_INDEX) -- Value=0xE000EDF0  returns 0x00 (0000ms, 2054ms total)
T1DE8 002:081 JLINK_ReadMemU32(0xE000ED00, 0x0001 Items, ...) -- CPU_ReadMem(4 bytes @ 0xE000ED00) - Data: 31 C2 1F 41  returns 0x01 (0001ms, 2055ms total)
T1DE8 002:082 JLINK_GetDebugInfo(0x10F = JLINKARM_DEBUG_INFO_HAS_CORTEX_M_SECURITY_EXT_INDEX) -- Value=0x00000000  returns 0x00 (0000ms, 2055ms total)
T1DE8 002:082 JLINK_SetResetType(JLINKARM_CM3_RESET_TYPE_NORMAL)  returns JLINKARM_CM3_RESET_TYPE_NORMAL (0000ms, 2055ms total)
T1DE8 002:082 JLINK_Reset() -- CPU is running -- CPU_WriteMem(4 bytes @ 0xE000EDF0) -- CPU is running -- CPU_WriteMem(4 bytes @ 0xE000EDFC) >0x35 TIF>Setting AIRCR.SYSRESETREQ -- CPU is running -- CPU_WriteMem(4 bytes @ 0xE000ED0C) >0x0D TIF> >0x28 TIF> -- CPU_ReadMem(4 bytes @ 0xE000ED0C) -- CPU_ReadMem(4 bytes @ 0xE000EDF0) -- CPU_ReadMem(4 bytes @ 0xE000EDF0) -- CPU_ReadMem(4 bytes @ 0xE000EDF0) -- CPU is running -- CPU_WriteMem(4 bytes @ 0xE000EDF0) -- CPU is running
 -- CPU_WriteMem(4 bytes @ 0xE000EDFC) -- CPU_ReadMem(4 bytes @ 0xE000EDF0) -- CPU_WriteMem(4 bytes @ 0xE0002000) -- CPU_ReadMem(4 bytes @ 0xE000EDFC) -- CPU_ReadMem(4 bytes @ 0xE0001000) (0082ms, 2137ms total)
T1DE8 002:164 JLINK_Halt()  returns 0x00 (0000ms, 2137ms total)
T1DE8 002:164 JLINK_ReadMemU32(0xE000EDF0, 0x0001 Items, ...) -- CPU_ReadMem(4 bytes @ 0xE000EDF0) - Data: 03 00 03 00  returns 0x01 (0002ms, 2139ms total)
T1DE8 002:166 JLINK_WriteU32(0xE000EDF0, 0xA05F0003) -- CPU_WriteMem(4 bytes @ 0xE000EDF0)  returns 0x00 (0002ms, 2141ms total)
T1DE8 002:168 JLINK_WriteU32(0xE000EDFC, 0x01000000) -- CPU_WriteMem(4 bytes @ 0xE000EDFC)  returns 0x00 (0001ms, 2142ms total)
T1DE8 002:190 JLINK_GetHWStatus(...)  returns 0x00 (0000ms, 2142ms total)
T1DE8 002:202 JLINK_GetNumBPUnits(Type = 0xFFFFFF00)  returns 0x06 (0000ms, 2142ms total)
T1DE8 002:202 JLINK_GetNumBPUnits(Type = 0xF0)  returns 0x2000 (0000ms, 2142ms total)
T1DE8 002:202 JLINK_GetNumWPUnits()  returns 0x04 (0000ms, 2142ms total)
T1DE8 002:221 JLINK_GetSpeed()  returns 0xFA0 (0000ms, 2142ms total)
T1DE8 002:229 JLINK_ReadMemU32(0xE000E004, 0x0001 Items, ...) -- CPU_ReadMem(4 bytes @ 0xE000E004) - Data: 01 00 00 00  returns 0x01 (0002ms, 2144ms total)
T1DE8 002:231 JLINK_ReadMemU32(0xE000E004, 0x0001 Items, ...) -- CPU_ReadMem(4 bytes @ 0xE000E004) - Data: 01 00 00 00  returns 0x01 (0001ms, 2145ms total)
T1DE8 002:232 JLINK_WriteMemEx(0xE0001000, 0x001C Bytes, ..., Flags = 0x02000004) - Data: 01 00 00 00 00 00 00 00 00 00 00 00 00 00 00 00 ... -- CPU_WriteMem(28 bytes @ 0xE0001000)  returns 0x1C (0003ms, 2148ms total)
T1DE8 002:235 JLINK_Halt()  returns 0x00 (0000ms, 2148ms total)
T1DE8 002:235 JLINK_IsHalted()  returns TRUE (0000ms, 2148ms total)
T1DE8 002:241 JLINK_WriteMem(0x20000000, 0x0164 Bytes, ...) - Data: 00 BE 0A E0 0D 78 2D 06 68 40 08 24 40 00 00 D3 ... -- CPU_WriteMem(356 bytes @ 0x20000000)  returns 0x164 (0003ms, 2151ms total)
T1DE8 002:244 JLINK_WriteReg(R0, 0x08000000)  returns 0x00 (0001ms, 2152ms total)
T1DE8 002:245 JLINK_WriteReg(R1, 0x007A1200)  returns 0x00 (0000ms, 2152ms total)
T1DE8 002:245 JLINK_WriteReg(R2, 0x00000001)  returns 0x00 (0000ms, 2152ms total)
T1DE8 002:245 JLINK_WriteReg(R3, 0x00000000)  returns 0x00 (0000ms, 2152ms total)
T1DE8 002:245 JLINK_WriteReg(R4, 0x00000000)  returns 0x00 (0000ms, 2152ms total)
T1DE8 002:245 JLINK_WriteReg(R5, 0x00000000)  returns 0x00 (0000ms, 2152ms total)
T1DE8 002:245 JLINK_WriteReg(R6, 0x00000000)  returns 0x00 (0000ms, 2152ms total)
T1DE8 002:245 JLINK_WriteReg(R7, 0x00000000)  returns 0x00 (0000ms, 2152ms total)
T1DE8 002:245 JLINK_WriteReg(R8, 0x00000000)  returns 0x00 (0000ms, 2152ms total)
T1DE8 002:245 JLINK_WriteReg(R9, 0x20000160)  returns 0x00 (0000ms, 2152ms total)
T1DE8 002:245 JLINK_WriteReg(R10, 0x00000000)  returns 0x00 (0001ms, 2153ms total)
T1DE8 002:246 JLINK_WriteReg(R11, 0x00000000)  returns 0x00 (0000ms, 2153ms total)
T1DE8 002:246 JLINK_WriteReg(R12, 0x00000000)  returns 0x00 (0000ms, 2153ms total)
T1DE8 002:246 JLINK_WriteReg(R13 (SP), 0x20000800)  returns 0x00 (0000ms, 2153ms total)
T1DE8 002:246 JLINK_WriteReg(R14, 0x20000001)  returns 0x00 (0000ms, 2153ms total)
T1DE8 002:246 JLINK_WriteReg(R15 (PC), 0x20000038)  returns 0x00 (0000ms, 2153ms total)
T1DE8 002:246 JLINK_WriteReg(XPSR, 0x01000000)  returns 0x00 (0000ms, 2153ms total)
T1DE8 002:246 JLINK_WriteReg(MSP, 0x20000800)  returns 0x00 (0000ms, 2153ms total)
T1DE8 002:246 JLINK_WriteReg(PSP, 0x20000800)  returns 0x00 (0000ms, 2153ms total)
T1DE8 002:246 JLINK_WriteReg(CFBP, 0x00000000)  returns 0x00 (0000ms, 2153ms total)
T1DE8 002:246 JLINK_SetBPEx(Addr = 0x20000000, Type = 0xFFFFFFF2) -- CPU_ReadMem(2 bytes @ 0x20000000)  returns 0x00000001 (0002ms, 2155ms total)
T1DE8 002:248 JLINK_Go() -- CPU_WriteMem(2 bytes @ 0x20000000) -- CPU_ReadMem(4 bytes @ 0xE0001000) -- CPU_WriteMem(4 bytes @ 0xE0002008) -- CPU_WriteMem(4 bytes @ 0xE000200C) -- CPU_WriteMem(4 bytes @ 0xE0002010) -- CPU_WriteMem(4 bytes @ 0xE0002014) -- CPU_WriteMem(4 bytes @ 0xE0002018) -- CPU_WriteMem(4 bytes @ 0xE000201C) -- CPU_WriteMem(4 bytes @ 0xE0001004) (0008ms, 2163ms total)
T1DE8 002:256 JLINK_IsHalted() -- CPU_ReadMem(2 bytes @ 0x20000000)  returns TRUE (0004ms, 2167ms total)
T1DE8 002:260 JLINK_ReadReg(R15 (PC))  returns 0x20000000 (0000ms, 2163ms total)
T1DE8 002:260 JLINK_ClrBPEx(BPHandle = 0x00000001)  returns 0x00 (0000ms, 2163ms total)
T1DE8 002:260 JLINK_ReadReg(R0)  returns 0x00000000 (0000ms, 2163ms total)
T1DE8 002:261 JLINK_WriteReg(R0, 0x08000000)  returns 0x00 (0000ms, 2163ms total)
T1DE8 002:261 JLINK_WriteReg(R1, 0x007A1200)  returns 0x00 (0000ms, 2163ms total)
T1DE8 002:261 JLINK_WriteReg(R2, 0x00000001)  returns 0x00 (0000ms, 2163ms total)
T1DE8 002:261 JLINK_WriteReg(R3, 0x00000000)  returns 0x00 (0000ms, 2163ms total)
T1DE8 002:261 JLINK_WriteReg(R4, 0x00000000)  returns 0x00 (0000ms, 2163ms total)
T1DE8 002:261 JLINK_WriteReg(R5, 0x00000000)  returns 0x00 (0001ms, 2164ms total)
T1DE8 002:262 JLINK_WriteReg(R6, 0x00000000)  returns 0x00 (0000ms, 2164ms total)
T1DE8 002:262 JLINK_WriteReg(R7, 0x00000000)  returns 0x00 (0000ms, 2164ms total)
T1DE8 002:262 JLINK_WriteReg(R8, 0x00000000)  returns 0x00 (0000ms, 2164ms total)
T1DE8 002:262 JLINK_WriteReg(R9, 0x20000160)  returns 0x00 (0000ms, 2164ms total)
T1DE8 002:262 JLINK_WriteReg(R10, 0x00000000)  returns 0x00 (0000ms, 2164ms total)
T1DE8 002:262 JLINK_WriteReg(R11, 0x00000000)  returns 0x00 (0000ms, 2164ms total)
T1DE8 002:262 JLINK_WriteReg(R12, 0x00000000)  returns 0x00 (0000ms, 2164ms total)
T1DE8 002:262 JLINK_WriteReg(R13 (SP), 0x20000800)  returns 0x00 (0000ms, 2164ms total)
T1DE8 002:262 JLINK_WriteReg(R14, 0x20000001)  returns 0x00 (0000ms, 2164ms total)
T1DE8 002:262 JLINK_WriteReg(R15 (PC), 0x2000007C)  returns 0x00 (0001ms, 2165ms total)
T1DE8 002:263 JLINK_WriteReg(XPSR, 0x01000000)  returns 0x00 (0000ms, 2165ms total)
T1DE8 002:263 JLINK_WriteReg(MSP, 0x20000800)  returns 0x00 (0000ms, 2165ms total)
T1DE8 002:263 JLINK_WriteReg(PSP, 0x20000800)  returns 0x00 (0000ms, 2165ms total)
T1DE8 002:263 JLINK_WriteReg(CFBP, 0x00000000)  returns 0x00 (0000ms, 2165ms total)
T1DE8 002:263 JLINK_SetBPEx(Addr = 0x20000000, Type = 0xFFFFFFF2)  returns 0x00000002 (0000ms, 2165ms total)
T1DE8 002:263 JLINK_Go() -- CPU_ReadMem(4 bytes @ 0xE0001000) (0004ms, 2169ms total)
T1DE8 002:267 JLINK_IsHalted()  returns FALSE (0001ms, 2170ms total)
T1DE8 002:426 JLINK_IsHalted() -- CPU_ReadMem(2 bytes @ 0x20000000)  returns TRUE (0004ms, 2173ms total)
T1DE8 002:430 JLINK_ReadReg(R15 (PC))  returns 0x20000000 (0000ms, 2169ms total)
T1DE8 002:430 JLINK_ClrBPEx(BPHandle = 0x00000002)  returns 0x00 (0001ms, 2170ms total)
T1DE8 002:431 JLINK_ReadReg(R0)  returns 0x00000000 (0000ms, 2170ms total)
T1DE8 002:482 JLINK_WriteReg(R0, 0x00000001)  returns 0x00 (0000ms, 2170ms total)
T1DE8 002:482 JLINK_WriteReg(R1, 0x007A1200)  returns 0x00 (0000ms, 2170ms total)
T1DE8 002:482 JLINK_WriteReg(R2, 0x00000001)  returns 0x00 (0001ms, 2171ms total)
T1DE8 002:483 JLINK_WriteReg(R3, 0x00000000)  returns 0x00 (0000ms, 2171ms total)
T1DE8 002:483 JLINK_WriteReg(R4, 0x00000000)  returns 0x00 (0000ms, 2171ms total)
T1DE8 002:483 JLINK_WriteReg(R5, 0x00000000)  returns 0x00 (0000ms, 2171ms total)
T1DE8 002:483 JLINK_WriteReg(R6, 0x00000000)  returns 0x00 (0000ms, 2171ms total)
T1DE8 002:483 JLINK_WriteReg(R7, 0x00000000)  returns 0x00 (0000ms, 2171ms total)
T1DE8 002:483 JLINK_WriteReg(R8, 0x00000000)  returns 0x00 (0000ms, 2171ms total)
T1DE8 002:483 JLINK_WriteReg(R9, 0x20000160)  returns 0x00 (0000ms, 2171ms total)
T1DE8 002:483 JLINK_WriteReg(R10, 0x00000000)  returns 0x00 (0000ms, 2171ms total)
T1DE8 002:484 JLINK_WriteReg(R11, 0x00000000)  returns 0x00 (0000ms, 2172ms total)
T1DE8 002:484 JLINK_WriteReg(R12, 0x00000000)  returns 0x00 (0000ms, 2172ms total)
T1DE8 002:484 JLINK_WriteReg(R13 (SP), 0x20000800)  returns 0x00 (0000ms, 2172ms total)
T1DE8 002:484 JLINK_WriteReg(R14, 0x20000001)  returns 0x00 (0000ms, 2172ms total)
T1DE8 002:484 JLINK_WriteReg(R15 (PC), 0x2000006A)  returns 0x00 (0000ms, 2172ms total)
T1DE8 002:484 JLINK_WriteReg(XPSR, 0x01000000)  returns 0x00 (0000ms, 2172ms total)
T1DE8 002:484 JLINK_WriteReg(MSP, 0x20000800)  returns 0x00 (0000ms, 2172ms total)
T1DE8 002:484 JLINK_WriteReg(PSP, 0x20000800)  returns 0x00 (0000ms, 2172ms total)
T1DE8 002:484 JLINK_WriteReg(CFBP, 0x00000000)  returns 0x00 (0000ms, 2172ms total)
T1DE8 002:484 JLINK_SetBPEx(Addr = 0x20000000, Type = 0xFFFFFFF2)  returns 0x00000003 (0001ms, 2173ms total)
T1DE8 002:485 JLINK_Go() -- CPU_ReadMem(4 bytes @ 0xE0001000) (0003ms, 2176ms total)
T1DE8 002:488 JLINK_IsHalted() -- CPU_ReadMem(2 bytes @ 0x20000000)  returns TRUE (0004ms, 2180ms total)
T1DE8 002:493 JLINK_ReadReg(R15 (PC))  returns 0x20000000 (0000ms, 2176ms total)
T1DE8 002:493 JLINK_ClrBPEx(BPHandle = 0x00000003)  returns 0x00 (0000ms, 2176ms total)
T1DE8 002:493 JLINK_ReadReg(R0)  returns 0x00000000 (0000ms, 2176ms total)
T1DE8 002:504 JLINK_WriteMem(0x20000000, 0x0164 Bytes, ...) - Data: 00 BE 0A E0 0D 78 2D 06 68 40 08 24 40 00 00 D3 ... -- CPU_WriteMem(356 bytes @ 0x20000000)  returns 0x164 (0003ms, 2179ms total)
T1DE8 002:507 JLINK_WriteReg(R0, 0x08000000)  returns 0x00 (0000ms, 2179ms total)
T1DE8 002:507 JLINK_WriteReg(R1, 0x007A1200)  returns 0x00 (0000ms, 2179ms total)
T1DE8 002:507 JLINK_WriteReg(R2, 0x00000002)  returns 0x00 (0000ms, 2179ms total)
T1DE8 002:507 JLINK_WriteReg(R3, 0x00000000)  returns 0x00 (0000ms, 2179ms total)
T1DE8 002:507 JLINK_WriteReg(R4, 0x00000000)  returns 0x00 (0000ms, 2179ms total)
T1DE8 002:507 JLINK_WriteReg(R5, 0x00000000)  returns 0x00 (0000ms, 2179ms total)
T1DE8 002:507 JLINK_WriteReg(R6, 0x00000000)  returns 0x00 (0000ms, 2179ms total)
T1DE8 002:508 JLINK_WriteReg(R7, 0x00000000)  returns 0x00 (0000ms, 2179ms total)
T1DE8 002:508 JLINK_WriteReg(R8, 0x00000000)  returns 0x00 (0000ms, 2179ms total)
T1DE8 002:508 JLINK_WriteReg(R9, 0x20000160)  returns 0x00 (0000ms, 2179ms total)
T1DE8 002:508 JLINK_WriteReg(R10, 0x00000000)  returns 0x00 (0000ms, 2179ms total)
T1DE8 002:508 JLINK_WriteReg(R11, 0x00000000)  returns 0x00 (0000ms, 2179ms total)
T1DE8 002:508 JLINK_WriteReg(R12, 0x00000000)  returns 0x00 (0000ms, 2179ms total)
T1DE8 002:508 JLINK_WriteReg(R13 (SP), 0x20000800)  returns 0x00 (0000ms, 2179ms total)
T1DE8 002:508 JLINK_WriteReg(R14, 0x20000001)  returns 0x00 (0000ms, 2179ms total)
T1DE8 002:508 JLINK_WriteReg(R15 (PC), 0x20000038)  returns 0x00 (0000ms, 2179ms total)
T1DE8 002:508 JLINK_WriteReg(XPSR, 0x01000000)  returns 0x00 (0001ms, 2180ms total)
T1DE8 002:509 JLINK_WriteReg(MSP, 0x20000800)  returns 0x00 (0000ms, 2180ms total)
T1DE8 002:509 JLINK_WriteReg(PSP, 0x20000800)  returns 0x00 (0000ms, 2180ms total)
T1DE8 002:509 JLINK_WriteReg(CFBP, 0x00000000)  returns 0x00 (0000ms, 2180ms total)
T1DE8 002:509 JLINK_SetBPEx(Addr = 0x20000000, Type = 0xFFFFFFF2) -- CPU_ReadMem(2 bytes @ 0x20000000)  returns 0x00000004 (0002ms, 2182ms total)
T1DE8 002:511 JLINK_Go() -- CPU_WriteMem(2 bytes @ 0x20000000) -- CPU_ReadMem(4 bytes @ 0xE0001000) (0003ms, 2185ms total)
T1DE8 002:515 JLINK_IsHalted() -- CPU_ReadMem(2 bytes @ 0x20000000)  returns TRUE (0004ms, 2190ms total)
T1DE8 002:519 JLINK_ReadReg(R15 (PC))  returns 0x20000000 (0000ms, 2186ms total)
T1DE8 002:519 JLINK_ClrBPEx(BPHandle = 0x00000004)  returns 0x00 (0000ms, 2186ms total)
T1DE8 002:519 JLINK_ReadReg(R0)  returns 0x00000000 (0000ms, 2186ms total)
T1DE8 002:520 JLINK_WriteMem(0x20000164, 0x029C Bytes, ...) - Data: 30 1B 00 20 AD 39 00 08 AD 08 00 08 AF 08 00 08 ... -- CPU_WriteMem(668 bytes @ 0x20000164)  returns 0x29C (0003ms, 2189ms total)
T1DE8 002:524 JLINK_WriteMem(0x20000400, 0x0164 Bytes, ...) - Data: 30 46 07 F0 CD FF 82 46 B7 48 41 69 50 46 06 F0 ... -- CPU_WriteMem(356 bytes @ 0x20000400)  returns 0x164 (0002ms, 2192ms total)
T1DE8 002:526 JLINK_WriteReg(R0, 0x08000000)  returns 0x00 (0000ms, 2192ms total)
T1DE8 002:526 JLINK_WriteReg(R1, 0x00000400)  returns 0x00 (0000ms, 2192ms total)
T1DE8 002:526 JLINK_WriteReg(R2, 0x20000164)  returns 0x00 (0000ms, 2192ms total)
T1DE8 002:526 JLINK_WriteReg(R3, 0x00000000)  returns 0x00 (0000ms, 2192ms total)
T1DE8 002:526 JLINK_WriteReg(R4, 0x00000000)  returns 0x00 (0000ms, 2192ms total)
T1DE8 002:526 JLINK_WriteReg(R5, 0x00000000)  returns 0x00 (0000ms, 2192ms total)
T1DE8 002:526 JLINK_WriteReg(R6, 0x00000000)  returns 0x00 (0000ms, 2192ms total)
T1DE8 002:527 JLINK_WriteReg(R7, 0x00000000)  returns 0x00 (0000ms, 2193ms total)
T1DE8 002:527 JLINK_WriteReg(R8, 0x00000000)  returns 0x00 (0000ms, 2193ms total)
T1DE8 002:527 JLINK_WriteReg(R9, 0x20000160)  returns 0x00 (0000ms, 2193ms total)
T1DE8 002:527 JLINK_WriteReg(R10, 0x00000000)  returns 0x00 (0000ms, 2193ms total)
T1DE8 002:527 JLINK_WriteReg(R11, 0x00000000)  returns 0x00 (0000ms, 2193ms total)
T1DE8 002:527 JLINK_WriteReg(R12, 0x00000000)  returns 0x00 (0000ms, 2193ms total)
T1DE8 002:527 JLINK_WriteReg(R13 (SP), 0x20000800)  returns 0x00 (0000ms, 2193ms total)
T1DE8 002:527 JLINK_WriteReg(R14, 0x20000001)  returns 0x00 (0000ms, 2193ms total)
T1DE8 002:527 JLINK_WriteReg(R15 (PC), 0x200000F4)  returns 0x00 (0000ms, 2193ms total)
T1DE8 002:527 JLINK_WriteReg(XPSR, 0x01000000)  returns 0x00 (0000ms, 2193ms total)
T1DE8 002:527 JLINK_WriteReg(MSP, 0x20000800)  returns 0x00 (0001ms, 2194ms total)
T1DE8 002:528 JLINK_WriteReg(PSP, 0x20000800)  returns 0x00 (0000ms, 2194ms total)
T1DE8 002:528 JLINK_WriteReg(CFBP, 0x00000000)  returns 0x00 (0000ms, 2194ms total)
T1DE8 002:528 JLINK_SetBPEx(Addr = 0x20000000, Type = 0xFFFFFFF2)  returns 0x00000005 (0000ms, 2194ms total)
T1DE8 002:528 JLINK_Go() -- CPU_ReadMem(4 bytes @ 0xE0001000) (0005ms, 2199ms total)
T1DE8 002:533 JLINK_IsHalted()  returns FALSE (0001ms, 2200ms total)
T1DE8 002:667 JLINK_IsHalted() -- CPU_ReadMem(2 bytes @ 0x20000000)  returns TRUE (0004ms, 2203ms total)
T1DE8 002:671 JLINK_ReadReg(R15 (PC))  returns 0x20000000 (0000ms, 2199ms total)
T1DE8 002:671 JLINK_ClrBPEx(BPHandle = 0x00000005)  returns 0x00 (0000ms, 2199ms total)
T1DE8 002:671 JLINK_ReadReg(R0)  returns 0x00000000 (0000ms, 2199ms total)
T1DE8 002:672 JLINK_WriteMem(0x20000164, 0x029C Bytes, ...) - Data: 01 01 C4 E9 00 01 BD E8 FF 9F 2D E9 F8 4F 04 46 ... -- CPU_WriteMem(668 bytes @ 0x20000164)  returns 0x29C (0003ms, 2202ms total)
T1DE8 002:675 JLINK_WriteMem(0x20000400, 0x0164 Bytes, ...) - Data: 54 48 06 C8 04 A8 FF F7 68 FE 52 48 DD E9 04 12 ... -- CPU_WriteMem(356 bytes @ 0x20000400)  returns 0x164 (0002ms, 2204ms total)
T1DE8 002:677 JLINK_WriteReg(R0, 0x08000400)  returns 0x00 (0000ms, 2204ms total)
T1DE8 002:677 JLINK_WriteReg(R1, 0x00000400)  returns 0x00 (0000ms, 2204ms total)
T1DE8 002:677 JLINK_WriteReg(R2, 0x20000164)  returns 0x00 (0000ms, 2204ms total)
T1DE8 002:677 JLINK_WriteReg(R3, 0x00000000)  returns 0x00 (0000ms, 2204ms total)
T1DE8 002:677 JLINK_WriteReg(R4, 0x00000000)  returns 0x00 (0000ms, 2204ms total)
T1DE8 002:677 JLINK_WriteReg(R5, 0x00000000)  returns 0x00 (0000ms, 2204ms total)
T1DE8 002:677 JLINK_WriteReg(R6, 0x00000000)  returns 0x00 (0001ms, 2205ms total)
T1DE8 002:678 JLINK_WriteReg(R7, 0x00000000)  returns 0x00 (0000ms, 2205ms total)
T1DE8 002:678 JLINK_WriteReg(R8, 0x00000000)  returns 0x00 (0000ms, 2205ms total)
T1DE8 002:678 JLINK_WriteReg(R9, 0x20000160)  returns 0x00 (0000ms, 2205ms total)
T1DE8 002:678 JLINK_WriteReg(R10, 0x00000000)  returns 0x00 (0000ms, 2205ms total)
T1DE8 002:678 JLINK_WriteReg(R11, 0x00000000)  returns 0x00 (0000ms, 2205ms total)
T1DE8 002:678 JLINK_WriteReg(R12, 0x00000000)  returns 0x00 (0000ms, 2205ms total)
T1DE8 002:678 JLINK_WriteReg(R13 (SP), 0x20000800)  returns 0x00 (0000ms, 2205ms total)
T1DE8 002:678 JLINK_WriteReg(R14, 0x20000001)  returns 0x00 (0000ms, 2205ms total)
T1DE8 002:678 JLINK_WriteReg(R15 (PC), 0x200000F4)  returns 0x00 (0000ms, 2205ms total)
T1DE8 002:678 JLINK_WriteReg(XPSR, 0x01000000)  returns 0x00 (0000ms, 2205ms total)
T1DE8 002:678 JLINK_WriteReg(MSP, 0x20000800)  returns 0x00 (0000ms, 2205ms total)
T1DE8 002:678 JLINK_WriteReg(PSP, 0x20000800)  returns 0x00 (0000ms, 2205ms total)
T1DE8 002:678 JLINK_WriteReg(CFBP, 0x00000000)  returns 0x00 (0000ms, 2205ms total)
T1DE8 002:678 JLINK_SetBPEx(Addr = 0x20000000, Type = 0xFFFFFFF2)  returns 0x00000006 (0000ms, 2205ms total)
T1DE8 002:678 JLINK_Go() -- CPU_ReadMem(4 bytes @ 0xE0001000) (0004ms, 2209ms total)
T1DE8 002:682 JLINK_IsHalted()  returns FALSE (0001ms, 2210ms total)
T1DE8 002:692 JLINK_IsHalted()  returns FALSE (0001ms, 2210ms total)
T1DE8 002:694 JLINK_IsHalted()  returns FALSE (0000ms, 2209ms total)
T1DE8 002:695 JLINK_IsHalted()  returns FALSE (0000ms, 2209ms total)
T1DE8 002:696 JLINK_IsHalted()  returns FALSE (0000ms, 2209ms total)
T1DE8 002:697 JLINK_IsHalted()  returns FALSE (0000ms, 2209ms total)
T1DE8 002:698 JLINK_IsHalted()  returns FALSE (0000ms, 2209ms total)
T1DE8 002:699 JLINK_IsHalted()  returns FALSE (0000ms, 2209ms total)
T1DE8 002:700 JLINK_IsHalted()  returns FALSE (0000ms, 2209ms total)
T1DE8 002:702 JLINK_IsHalted()  returns FALSE (0000ms, 2209ms total)
T1DE8 002:703 JLINK_IsHalted()  returns FALSE (0000ms, 2209ms total)
T1DE8 002:704 JLINK_IsHalted()  returns FALSE (0000ms, 2209ms total)
T1DE8 002:705 JLINK_IsHalted()  returns FALSE (0000ms, 2209ms total)
T1DE8 002:706 JLINK_IsHalted()  returns FALSE (0000ms, 2209ms total)
T1DE8 002:707 JLINK_IsHalted()  returns FALSE (0000ms, 2209ms total)
T1DE8 002:708 JLINK_IsHalted()  returns FALSE (0000ms, 2209ms total)
T1DE8 002:709 JLINK_IsHalted()  returns FALSE (0000ms, 2209ms total)
T1DE8 002:710 JLINK_IsHalted()  returns FALSE (0000ms, 2209ms total)
T1DE8 002:711 JLINK_IsHalted()  returns FALSE (0000ms, 2209ms total)
T1DE8 002:712 JLINK_IsHalted()  returns FALSE (0000ms, 2209ms total)
T1DE8 002:713 JLINK_IsHalted() -- CPU_ReadMem(2 bytes @ 0x20000000)  returns TRUE (0003ms, 2212ms total)
T1DE8 002:716 JLINK_ReadReg(R15 (PC))  returns 0x20000000 (0000ms, 2209ms total)
T1DE8 002:716 JLINK_ClrBPEx(BPHandle = 0x00000006)  returns 0x00 (0000ms, 2209ms total)
T1DE8 002:716 JLINK_ReadReg(R0)  returns 0x00000000 (0000ms, 2209ms total)
T1DE8 002:718 JLINK_WriteMem(0x20000164, 0x029C Bytes, ...) - Data: 28 00 00 20 18 00 00 20 1C 00 00 20 00 00 96 44 ... -- CPU_WriteMem(668 bytes @ 0x20000164)  returns 0x29C (0003ms, 2212ms total)
T1DE8 002:721 JLINK_WriteMem(0x20000400, 0x0164 Bytes, ...) - Data: 00 09 3D 00 30 00 00 20 38 B5 4F F4 80 30 03 F0 ... -- CPU_WriteMem(356 bytes @ 0x20000400)  returns 0x164 (0002ms, 2214ms total)
T1DE8 002:723 JLINK_WriteReg(R0, 0x08000800)  returns 0x00 (0000ms, 2214ms total)
T1DE8 002:723 JLINK_WriteReg(R1, 0x00000400)  returns 0x00 (0000ms, 2214ms total)
T1DE8 002:723 JLINK_WriteReg(R2, 0x20000164)  returns 0x00 (0000ms, 2214ms total)
T1DE8 002:724 JLINK_WriteReg(R3, 0x00000000)  returns 0x00 (0000ms, 2215ms total)
T1DE8 002:724 JLINK_WriteReg(R4, 0x00000000)  returns 0x00 (0000ms, 2215ms total)
T1DE8 002:724 JLINK_WriteReg(R5, 0x00000000)  returns 0x00 (0000ms, 2215ms total)
T1DE8 002:724 JLINK_WriteReg(R6, 0x00000000)  returns 0x00 (0000ms, 2215ms total)
T1DE8 002:724 JLINK_WriteReg(R7, 0x00000000)  returns 0x00 (0000ms, 2215ms total)
T1DE8 002:724 JLINK_WriteReg(R8, 0x00000000)  returns 0x00 (0000ms, 2215ms total)
T1DE8 002:724 JLINK_WriteReg(R9, 0x20000160)  returns 0x00 (0000ms, 2215ms total)
T1DE8 002:724 JLINK_WriteReg(R10, 0x00000000)  returns 0x00 (0000ms, 2215ms total)
T1DE8 002:724 JLINK_WriteReg(R11, 0x00000000)  returns 0x00 (0000ms, 2215ms total)
T1DE8 002:724 JLINK_WriteReg(R12, 0x00000000)  returns 0x00 (0000ms, 2215ms total)
T1DE8 002:724 JLINK_WriteReg(R13 (SP), 0x20000800)  returns 0x00 (0000ms, 2215ms total)
T1DE8 002:724 JLINK_WriteReg(R14, 0x20000001)  returns 0x00 (0000ms, 2215ms total)
T1DE8 002:724 JLINK_WriteReg(R15 (PC), 0x200000F4)  returns 0x00 (0000ms, 2215ms total)
T1DE8 002:724 JLINK_WriteReg(XPSR, 0x01000000)  returns 0x00 (0000ms, 2215ms total)
T1DE8 002:724 JLINK_WriteReg(MSP, 0x20000800)  returns 0x00 (0000ms, 2215ms total)
T1DE8 002:724 JLINK_WriteReg(PSP, 0x20000800)  returns 0x00 (0000ms, 2215ms total)
T1DE8 002:724 JLINK_WriteReg(CFBP, 0x00000000)  returns 0x00 (0000ms, 2215ms total)
T1DE8 002:724 JLINK_SetBPEx(Addr = 0x20000000, Type = 0xFFFFFFF2)  returns 0x00000007 (0001ms, 2216ms total)
T1DE8 002:725 JLINK_Go() -- CPU_ReadMem(4 bytes @ 0xE0001000) (0003ms, 2219ms total)
T1DE8 002:728 JLINK_IsHalted()  returns FALSE (0001ms, 2220ms total)
T1DE8 002:733 JLINK_IsHalted()  returns FALSE (0001ms, 2220ms total)
T1DE8 002:735 JLINK_IsHalted()  returns FALSE (0001ms, 2220ms total)
T1DE8 002:737 JLINK_IsHalted()  returns FALSE (0000ms, 2219ms total)
T1DE8 002:738 JLINK_IsHalted()  returns FALSE (0001ms, 2220ms total)
T1DE8 002:740 JLINK_IsHalted()  returns FALSE (0001ms, 2220ms total)
T1DE8 002:742 JLINK_IsHalted()  returns FALSE (0001ms, 2220ms total)
T1DE8 002:744 JLINK_IsHalted()  returns FALSE (0001ms, 2220ms total)
T1DE8 002:746 JLINK_IsHalted()  returns FALSE (0000ms, 2219ms total)
T1DE8 002:747 JLINK_IsHalted()  returns FALSE (0000ms, 2219ms total)
T1DE8 002:748 JLINK_IsHalted()  returns FALSE (0000ms, 2219ms total)
T1DE8 002:749 JLINK_IsHalted()  returns FALSE (0000ms, 2219ms total)
T1DE8 002:750 JLINK_IsHalted()  returns FALSE (0000ms, 2219ms total)
T1DE8 002:751 JLINK_IsHalted()  returns FALSE (0000ms, 2219ms total)
T1DE8 002:752 JLINK_IsHalted()  returns FALSE (0000ms, 2219ms total)
T1DE8 002:753 JLINK_IsHalted()  returns FALSE (0000ms, 2219ms total)
T1DE8 002:754 JLINK_IsHalted()  returns FALSE (0000ms, 2219ms total)
T1DE8 002:755 JLINK_IsHalted()  returns FALSE (0000ms, 2219ms total)
T1DE8 002:756 JLINK_IsHalted()  returns FALSE (0000ms, 2219ms total)
T1DE8 002:757 JLINK_IsHalted()  returns FALSE (0000ms, 2219ms total)
T1DE8 002:758 JLINK_IsHalted()  returns FALSE (0000ms, 2219ms total)
T1DE8 002:759 JLINK_IsHalted() -- CPU_ReadMem(2 bytes @ 0x20000000)  returns TRUE (0003ms, 2222ms total)
T1DE8 002:762 JLINK_ReadReg(R15 (PC))  returns 0x20000000 (0000ms, 2219ms total)
T1DE8 002:762 JLINK_ClrBPEx(BPHandle = 0x00000007)  returns 0x00 (0000ms, 2219ms total)
T1DE8 002:762 JLINK_ReadReg(R0)  returns 0x00000000 (0000ms, 2219ms total)
T1DE8 002:764 JLINK_WriteMem(0x20000164, 0x029C Bytes, ...) - Data: 4B 20 3D 20 25 64 0D 0A 20 50 43 4C 4B 31 20 3D ... -- CPU_WriteMem(668 bytes @ 0x20000164)  returns 0x29C (0003ms, 2222ms total)
T1DE8 002:767 JLINK_WriteMem(0x20000400, 0x0164 Bytes, ...) - Data: 08 60 01 20 76 49 08 60 00 BF FF F7 64 FE 75 49 ... -- CPU_WriteMem(356 bytes @ 0x20000400)  returns 0x164 (0002ms, 2224ms total)
T1DE8 002:769 JLINK_WriteReg(R0, 0x08000C00)  returns 0x00 (0000ms, 2224ms total)
T1DE8 002:769 JLINK_WriteReg(R1, 0x00000400)  returns 0x00 (0000ms, 2224ms total)
T1DE8 002:769 JLINK_WriteReg(R2, 0x20000164)  returns 0x00 (0000ms, 2224ms total)
T1DE8 002:769 JLINK_WriteReg(R3, 0x00000000)  returns 0x00 (0000ms, 2224ms total)
T1DE8 002:769 JLINK_WriteReg(R4, 0x00000000)  returns 0x00 (0000ms, 2224ms total)
T1DE8 002:769 JLINK_WriteReg(R5, 0x00000000)  returns 0x00 (0000ms, 2224ms total)
T1DE8 002:769 JLINK_WriteReg(R6, 0x00000000)  returns 0x00 (0000ms, 2224ms total)
T1DE8 002:769 JLINK_WriteReg(R7, 0x00000000)  returns 0x00 (0000ms, 2224ms total)
T1DE8 002:769 JLINK_WriteReg(R8, 0x00000000)  returns 0x00 (0000ms, 2224ms total)
T1DE8 002:769 JLINK_WriteReg(R9, 0x20000160)  returns 0x00 (0000ms, 2224ms total)
T1DE8 002:769 JLINK_WriteReg(R10, 0x00000000)  returns 0x00 (0000ms, 2224ms total)
T1DE8 002:769 JLINK_WriteReg(R11, 0x00000000)  returns 0x00 (0000ms, 2224ms total)
T1DE8 002:769 JLINK_WriteReg(R12, 0x00000000)  returns 0x00 (0001ms, 2225ms total)
T1DE8 002:770 JLINK_WriteReg(R13 (SP), 0x20000800)  returns 0x00 (0000ms, 2225ms total)
T1DE8 002:770 JLINK_WriteReg(R14, 0x20000001)  returns 0x00 (0000ms, 2225ms total)
T1DE8 002:770 JLINK_WriteReg(R15 (PC), 0x200000F4)  returns 0x00 (0000ms, 2225ms total)
T1DE8 002:770 JLINK_WriteReg(XPSR, 0x01000000)  returns 0x00 (0000ms, 2225ms total)
T1DE8 002:770 JLINK_WriteReg(MSP, 0x20000800)  returns 0x00 (0000ms, 2225ms total)
T1DE8 002:770 JLINK_WriteReg(PSP, 0x20000800)  returns 0x00 (0000ms, 2225ms total)
T1DE8 002:770 JLINK_WriteReg(CFBP, 0x00000000)  returns 0x00 (0000ms, 2225ms total)
T1DE8 002:770 JLINK_SetBPEx(Addr = 0x20000000, Type = 0xFFFFFFF2)  returns 0x00000008 (0000ms, 2225ms total)
T1DE8 002:770 JLINK_Go() -- CPU_ReadMem(4 bytes @ 0xE0001000) (0003ms, 2228ms total)
T1DE8 002:773 JLINK_IsHalted()  returns FALSE (0001ms, 2229ms total)
T1DE8 002:775 JLINK_IsHalted()  returns FALSE (0000ms, 2228ms total)
T1DE8 002:776 JLINK_IsHalted()  returns FALSE (0000ms, 2228ms total)
T1DE8 002:777 JLINK_IsHalted()  returns FALSE (0000ms, 2228ms total)
T1DE8 002:779 JLINK_IsHalted()  returns FALSE (0001ms, 2229ms total)
T1DE8 002:781 JLINK_IsHalted()  returns FALSE (0001ms, 2229ms total)
T1DE8 002:783 JLINK_IsHalted()  returns FALSE (0001ms, 2229ms total)
T1DE8 002:785 JLINK_IsHalted()  returns FALSE (0001ms, 2229ms total)
T1DE8 002:787 JLINK_IsHalted()  returns FALSE (0001ms, 2229ms total)
T1DE8 002:789 JLINK_IsHalted()  returns FALSE (0001ms, 2229ms total)
T1DE8 002:791 JLINK_IsHalted()  returns FALSE (0001ms, 2229ms total)
T1DE8 002:793 JLINK_IsHalted()  returns FALSE (0001ms, 2229ms total)
T1DE8 002:795 JLINK_IsHalted()  returns FALSE (0001ms, 2229ms total)
T1DE8 002:801 JLINK_IsHalted()  returns FALSE (0001ms, 2229ms total)
T1DE8 002:803 JLINK_IsHalted()  returns FALSE (0001ms, 2229ms total)
T1DE8 002:806 JLINK_IsHalted() -- CPU_ReadMem(2 bytes @ 0x20000000)  returns TRUE (0004ms, 2233ms total)
T1DE8 002:810 JLINK_ReadReg(R15 (PC))  returns 0x20000000 (0000ms, 2229ms total)
T1DE8 002:811 JLINK_ClrBPEx(BPHandle = 0x00000008)  returns 0x00 (0000ms, 2230ms total)
T1DE8 002:811 JLINK_ReadReg(R0)  returns 0x00000000 (0000ms, 2230ms total)
T1DE8 002:812 JLINK_WriteMem(0x20000164, 0x029C Bytes, ...) - Data: 00 BF 00 BF 06 E0 00 BF 01 A9 17 48 02 F0 72 FE ... -- CPU_WriteMem(668 bytes @ 0x20000164)  returns 0x29C (0003ms, 2233ms total)
T1DE8 002:815 JLINK_WriteMem(0x20000400, 0x0164 Bytes, ...) - Data: 08 60 01 20 20 49 08 60 00 BF FF F7 64 FC 1F 49 ... -- CPU_WriteMem(356 bytes @ 0x20000400)  returns 0x164 (0002ms, 2235ms total)
T1DE8 002:817 JLINK_WriteReg(R0, 0x08001000)  returns 0x00 (0000ms, 2235ms total)
T1DE8 002:817 JLINK_WriteReg(R1, 0x00000400)  returns 0x00 (0000ms, 2235ms total)
T1DE8 002:817 JLINK_WriteReg(R2, 0x20000164)  returns 0x00 (0000ms, 2235ms total)
T1DE8 002:817 JLINK_WriteReg(R3, 0x00000000)  returns 0x00 (0001ms, 2236ms total)
T1DE8 002:818 JLINK_WriteReg(R4, 0x00000000)  returns 0x00 (0000ms, 2236ms total)
T1DE8 002:818 JLINK_WriteReg(R5, 0x00000000)  returns 0x00 (0000ms, 2236ms total)
T1DE8 002:818 JLINK_WriteReg(R6, 0x00000000)  returns 0x00 (0000ms, 2236ms total)
T1DE8 002:818 JLINK_WriteReg(R7, 0x00000000)  returns 0x00 (0000ms, 2236ms total)
T1DE8 002:818 JLINK_WriteReg(R8, 0x00000000)  returns 0x00 (0000ms, 2236ms total)
T1DE8 002:818 JLINK_WriteReg(R9, 0x20000160)  returns 0x00 (0000ms, 2236ms total)
T1DE8 002:818 JLINK_WriteReg(R10, 0x00000000)  returns 0x00 (0000ms, 2236ms total)
T1DE8 002:818 JLINK_WriteReg(R11, 0x00000000)  returns 0x00 (0000ms, 2236ms total)
T1DE8 002:818 JLINK_WriteReg(R12, 0x00000000)  returns 0x00 (0000ms, 2236ms total)
T1DE8 002:818 JLINK_WriteReg(R13 (SP), 0x20000800)  returns 0x00 (0001ms, 2237ms total)
T1DE8 002:819 JLINK_WriteReg(R14, 0x20000001)  returns 0x00 (0000ms, 2237ms total)
T1DE8 002:819 JLINK_WriteReg(R15 (PC), 0x200000F4)  returns 0x00 (0000ms, 2237ms total)
T1DE8 002:819 JLINK_WriteReg(XPSR, 0x01000000)  returns 0x00 (0000ms, 2237ms total)
T1DE8 002:819 JLINK_WriteReg(MSP, 0x20000800)  returns 0x00 (0000ms, 2237ms total)
T1DE8 002:819 JLINK_WriteReg(PSP, 0x20000800)  returns 0x00 (0000ms, 2237ms total)
T1DE8 002:819 JLINK_WriteReg(CFBP, 0x00000000)  returns 0x00 (0000ms, 2237ms total)
T1DE8 002:819 JLINK_SetBPEx(Addr = 0x20000000, Type = 0xFFFFFFF2)  returns 0x00000009 (0000ms, 2237ms total)
T1DE8 002:819 JLINK_Go() -- CPU_ReadMem(4 bytes @ 0xE0001000) (0004ms, 2241ms total)
T1DE8 002:823 JLINK_IsHalted()  returns FALSE (0001ms, 2242ms total)
T1DE8 002:828 JLINK_IsHalted()  returns FALSE (0001ms, 2242ms total)
T1DE8 002:831 JLINK_IsHalted()  returns FALSE (0001ms, 2244ms total)
T1DE8 002:833 JLINK_IsHalted()  returns FALSE (0001ms, 2244ms total)
T1DE8 002:835 JLINK_IsHalted()  returns FALSE (0001ms, 2244ms total)
T1DE8 002:837 JLINK_IsHalted()  returns FALSE (0001ms, 2244ms total)
T1DE8 002:839 JLINK_IsHalted()  returns FALSE (0001ms, 2244ms total)
T1DE8 002:841 JLINK_IsHalted()  returns FALSE (0001ms, 2244ms total)
T1DE8 002:843 JLINK_IsHalted()  returns FALSE (0001ms, 2244ms total)
T1DE8 002:845 JLINK_IsHalted()  returns FALSE (0001ms, 2244ms total)
T1DE8 002:847 JLINK_IsHalted()  returns FALSE (0001ms, 2244ms total)
T1DE8 002:849 JLINK_IsHalted()  returns FALSE (0001ms, 2244ms total)
T1DE8 002:851 JLINK_IsHalted()  returns FALSE (0001ms, 2244ms total)
T1DE8 002:853 JLINK_IsHalted() -- CPU_ReadMem(2 bytes @ 0x20000000)  returns TRUE (0005ms, 2248ms total)
T1DE8 002:858 JLINK_ReadReg(R15 (PC))  returns 0x20000000 (0000ms, 2248ms total)
T1DE8 002:858 JLINK_ClrBPEx(BPHandle = 0x00000009)  returns 0x00 (0000ms, 2248ms total)
T1DE8 002:858 JLINK_ReadReg(R0)  returns 0x00000000 (0000ms, 2248ms total)
T1DE8 002:859 JLINK_WriteMem(0x20000164, 0x029C Bytes, ...) - Data: 10 B5 40 F2 24 41 59 48 03 F0 1A FD D8 B1 58 48 ... -- CPU_WriteMem(668 bytes @ 0x20000164)  returns 0x29C (0003ms, 2251ms total)
T1DE8 002:862 JLINK_WriteMem(0x20000400, 0x0164 Bytes, ...) - Data: 01 20 8D F8 03 00 68 46 03 F0 15 FC 08 BD 10 B5 ... -- CPU_WriteMem(356 bytes @ 0x20000400)  returns 0x164 (0002ms, 2253ms total)
T1DE8 002:864 JLINK_WriteReg(R0, 0x08001400)  returns 0x00 (0000ms, 2253ms total)
T1DE8 002:864 JLINK_WriteReg(R1, 0x00000400)  returns 0x00 (0000ms, 2253ms total)
T1DE8 002:865 JLINK_WriteReg(R2, 0x20000164)  returns 0x00 (0000ms, 2254ms total)
T1DE8 002:865 JLINK_WriteReg(R3, 0x00000000)  returns 0x00 (0000ms, 2254ms total)
T1DE8 002:865 JLINK_WriteReg(R4, 0x00000000)  returns 0x00 (0000ms, 2254ms total)
T1DE8 002:865 JLINK_WriteReg(R5, 0x00000000)  returns 0x00 (0000ms, 2254ms total)
T1DE8 002:865 JLINK_WriteReg(R6, 0x00000000)  returns 0x00 (0000ms, 2254ms total)
T1DE8 002:865 JLINK_WriteReg(R7, 0x00000000)  returns 0x00 (0000ms, 2254ms total)
T1DE8 002:865 JLINK_WriteReg(R8, 0x00000000)  returns 0x00 (0000ms, 2254ms total)
T1DE8 002:865 JLINK_WriteReg(R9, 0x20000160)  returns 0x00 (0000ms, 2254ms total)
T1DE8 002:865 JLINK_WriteReg(R10, 0x00000000)  returns 0x00 (0000ms, 2254ms total)
T1DE8 002:865 JLINK_WriteReg(R11, 0x00000000)  returns 0x00 (0001ms, 2255ms total)
T1DE8 002:866 JLINK_WriteReg(R12, 0x00000000)  returns 0x00 (0000ms, 2255ms total)
T1DE8 002:866 JLINK_WriteReg(R13 (SP), 0x20000800)  returns 0x00 (0000ms, 2255ms total)
T1DE8 002:866 JLINK_WriteReg(R14, 0x20000001)  returns 0x00 (0000ms, 2255ms total)
T1DE8 002:866 JLINK_WriteReg(R15 (PC), 0x200000F4)  returns 0x00 (0000ms, 2255ms total)
T1DE8 002:866 JLINK_WriteReg(XPSR, 0x01000000)  returns 0x00 (0000ms, 2255ms total)
T1DE8 002:866 JLINK_WriteReg(MSP, 0x20000800)  returns 0x00 (0000ms, 2255ms total)
T1DE8 002:866 JLINK_WriteReg(PSP, 0x20000800)  returns 0x00 (0000ms, 2255ms total)
T1DE8 002:866 JLINK_WriteReg(CFBP, 0x00000000)  returns 0x00 (0000ms, 2255ms total)
T1DE8 002:866 JLINK_SetBPEx(Addr = 0x20000000, Type = 0xFFFFFFF2)  returns 0x0000000A (0000ms, 2255ms total)
T1DE8 002:866 JLINK_Go() -- CPU_ReadMem(4 bytes @ 0xE0001000) (0004ms, 2259ms total)
T1DE8 002:870 JLINK_IsHalted()  returns FALSE (0001ms, 2260ms total)
T1DE8 002:872 JLINK_IsHalted()  returns FALSE (0001ms, 2260ms total)
T1DE8 002:874 JLINK_IsHalted()  returns FALSE (0001ms, 2260ms total)
T1DE8 002:876 JLINK_IsHalted()  returns FALSE (0001ms, 2260ms total)
T1DE8 002:878 JLINK_IsHalted()  returns FALSE (0001ms, 2260ms total)
T1DE8 002:880 JLINK_IsHalted()  returns FALSE (0001ms, 2261ms total)
T1DE8 002:882 JLINK_IsHalted()  returns FALSE (0001ms, 2261ms total)
T1DE8 002:884 JLINK_IsHalted()  returns FALSE (0001ms, 2261ms total)
T1DE8 002:886 JLINK_IsHalted()  returns FALSE (0001ms, 2261ms total)
T1DE8 002:888 JLINK_IsHalted()  returns FALSE (0001ms, 2261ms total)
T1DE8 002:890 JLINK_IsHalted()  returns FALSE (0001ms, 2261ms total)
T1DE8 002:892 JLINK_IsHalted()  returns FALSE (0001ms, 2261ms total)
T1DE8 002:894 JLINK_IsHalted()  returns FALSE (0001ms, 2261ms total)
T1DE8 002:896 JLINK_IsHalted()  returns FALSE (0001ms, 2261ms total)
T1DE8 002:898 JLINK_IsHalted()  returns FALSE (0001ms, 2261ms total)
T1DE8 002:900 JLINK_IsHalted() -- CPU_ReadMem(2 bytes @ 0x20000000)  returns TRUE (0004ms, 2264ms total)
T1DE8 002:904 JLINK_ReadReg(R15 (PC))  returns 0x20000000 (0000ms, 2260ms total)
T1DE8 002:905 JLINK_ClrBPEx(BPHandle = 0x0000000A)  returns 0x00 (0000ms, 2261ms total)
T1DE8 002:905 JLINK_ReadReg(R0)  returns 0x00000000 (0000ms, 2261ms total)
T1DE8 002:905 JLINK_WriteMem(0x20000164, 0x029C Bytes, ...) - Data: 03 F0 9D FC 61 48 14 30 03 F0 B0 FC C0 F1 64 00 ... -- CPU_WriteMem(668 bytes @ 0x20000164)  returns 0x29C (0004ms, 2265ms total)
T1DE8 002:909 JLINK_WriteMem(0x20000400, 0x0164 Bytes, ...) - Data: 48 1E 4F F0 E0 22 50 61 50 17 0F 22 00 28 07 DA ... -- CPU_WriteMem(356 bytes @ 0x20000400)  returns 0x164 (0002ms, 2267ms total)
T1DE8 002:911 JLINK_WriteReg(R0, 0x08001800)  returns 0x00 (0000ms, 2267ms total)
T1DE8 002:911 JLINK_WriteReg(R1, 0x00000400)  returns 0x00 (0000ms, 2267ms total)
T1DE8 002:911 JLINK_WriteReg(R2, 0x20000164)  returns 0x00 (0000ms, 2267ms total)
T1DE8 002:911 JLINK_WriteReg(R3, 0x00000000)  returns 0x00 (0000ms, 2267ms total)
T1DE8 002:911 JLINK_WriteReg(R4, 0x00000000)  returns 0x00 (0000ms, 2267ms total)
T1DE8 002:911 JLINK_WriteReg(R5, 0x00000000)  returns 0x00 (0001ms, 2268ms total)
T1DE8 002:912 JLINK_WriteReg(R6, 0x00000000)  returns 0x00 (0000ms, 2268ms total)
T1DE8 002:912 JLINK_WriteReg(R7, 0x00000000)  returns 0x00 (0000ms, 2268ms total)
T1DE8 002:912 JLINK_WriteReg(R8, 0x00000000)  returns 0x00 (0000ms, 2268ms total)
T1DE8 002:912 JLINK_WriteReg(R9, 0x20000160)  returns 0x00 (0000ms, 2268ms total)
T1DE8 002:912 JLINK_WriteReg(R10, 0x00000000)  returns 0x00 (0000ms, 2268ms total)
T1DE8 002:912 JLINK_WriteReg(R11, 0x00000000)  returns 0x00 (0000ms, 2268ms total)
T1DE8 002:912 JLINK_WriteReg(R12, 0x00000000)  returns 0x00 (0000ms, 2268ms total)
T1DE8 002:912 JLINK_WriteReg(R13 (SP), 0x20000800)  returns 0x00 (0000ms, 2268ms total)
T1DE8 002:912 JLINK_WriteReg(R14, 0x20000001)  returns 0x00 (0000ms, 2268ms total)
T1DE8 002:912 JLINK_WriteReg(R15 (PC), 0x200000F4)  returns 0x00 (0000ms, 2268ms total)
T1DE8 002:912 JLINK_WriteReg(XPSR, 0x01000000)  returns 0x00 (0000ms, 2268ms total)
T1DE8 002:912 JLINK_WriteReg(MSP, 0x20000800)  returns 0x00 (0000ms, 2268ms total)
T1DE8 002:913 JLINK_WriteReg(PSP, 0x20000800)  returns 0x00 (0000ms, 2269ms total)
T1DE8 002:913 JLINK_WriteReg(CFBP, 0x00000000)  returns 0x00 (0000ms, 2269ms total)
T1DE8 002:913 JLINK_SetBPEx(Addr = 0x20000000, Type = 0xFFFFFFF2)  returns 0x0000000B (0000ms, 2269ms total)
T1DE8 002:913 JLINK_Go() -- CPU_ReadMem(4 bytes @ 0xE0001000) (0003ms, 2272ms total)
T1DE8 002:916 JLINK_IsHalted()  returns FALSE (0001ms, 2273ms total)
T1DE8 002:921 JLINK_IsHalted()  returns FALSE (0001ms, 2273ms total)
T1DE8 002:923 JLINK_IsHalted()  returns FALSE (0001ms, 2273ms total)
T1DE8 002:925 JLINK_IsHalted()  returns FALSE (0001ms, 2273ms total)
T1DE8 002:927 JLINK_IsHalted()  returns FALSE (0001ms, 2273ms total)
T1DE8 002:929 JLINK_IsHalted()  returns FALSE (0001ms, 2273ms total)
T1DE8 002:931 JLINK_IsHalted()  returns FALSE (0000ms, 2272ms total)
T1DE8 002:932 JLINK_IsHalted()  returns FALSE (0001ms, 2273ms total)
T1DE8 002:934 JLINK_IsHalted()  returns FALSE (0001ms, 2273ms total)
T1DE8 002:936 JLINK_IsHalted()  returns FALSE (0001ms, 2273ms total)
T1DE8 002:938 JLINK_IsHalted()  returns FALSE (0001ms, 2273ms total)
T1DE8 002:940 JLINK_IsHalted()  returns FALSE (0001ms, 2273ms total)
T1DE8 002:942 JLINK_IsHalted()  returns FALSE (0001ms, 2273ms total)
T1DE8 002:944 JLINK_IsHalted()  returns FALSE (0000ms, 2272ms total)
T1DE8 002:945 JLINK_IsHalted()  returns FALSE (0001ms, 2273ms total)
T1DE8 002:947 JLINK_IsHalted() -- CPU_ReadMem(2 bytes @ 0x20000000)  returns TRUE (0004ms, 2276ms total)
T1DE8 002:951 JLINK_ReadReg(R15 (PC))  returns 0x20000000 (0000ms, 2272ms total)
T1DE8 002:951 JLINK_ClrBPEx(BPHandle = 0x0000000B)  returns 0x00 (0000ms, 2272ms total)
T1DE8 002:951 JLINK_ReadReg(R0)  returns 0x00000000 (0001ms, 2273ms total)
T1DE8 002:952 JLINK_WriteMem(0x20000164, 0x029C Bytes, ...) - Data: 00 79 00 B9 03 E0 60 1C C4 B2 0F 2C ED DB 00 BF ... -- CPU_WriteMem(668 bytes @ 0x20000164)  returns 0x29C (0004ms, 2277ms total)
T1DE8 002:956 JLINK_WriteMem(0x20000400, 0x0164 Bytes, ...) - Data: 52 F8 21 00 69 46 03 F0 10 FD 04 20 AD F8 00 00 ... -- CPU_WriteMem(356 bytes @ 0x20000400)  returns 0x164 (0002ms, 2279ms total)
T1DE8 002:958 JLINK_WriteReg(R0, 0x08001C00)  returns 0x00 (0000ms, 2279ms total)
T1DE8 002:958 JLINK_WriteReg(R1, 0x00000400)  returns 0x00 (0000ms, 2279ms total)
T1DE8 002:958 JLINK_WriteReg(R2, 0x20000164)  returns 0x00 (0000ms, 2279ms total)
T1DE8 002:958 JLINK_WriteReg(R3, 0x00000000)  returns 0x00 (0000ms, 2279ms total)
T1DE8 002:958 JLINK_WriteReg(R4, 0x00000000)  returns 0x00 (0000ms, 2279ms total)
T1DE8 002:958 JLINK_WriteReg(R5, 0x00000000)  returns 0x00 (0001ms, 2280ms total)
T1DE8 002:959 JLINK_WriteReg(R6, 0x00000000)  returns 0x00 (0000ms, 2280ms total)
T1DE8 002:959 JLINK_WriteReg(R7, 0x00000000)  returns 0x00 (0000ms, 2280ms total)
T1DE8 002:959 JLINK_WriteReg(R8, 0x00000000)  returns 0x00 (0000ms, 2280ms total)
T1DE8 002:959 JLINK_WriteReg(R9, 0x20000160)  returns 0x00 (0000ms, 2280ms total)
T1DE8 002:959 JLINK_WriteReg(R10, 0x00000000)  returns 0x00 (0000ms, 2280ms total)
T1DE8 002:959 JLINK_WriteReg(R11, 0x00000000)  returns 0x00 (0000ms, 2280ms total)
T1DE8 002:959 JLINK_WriteReg(R12, 0x00000000)  returns 0x00 (0000ms, 2280ms total)
T1DE8 002:959 JLINK_WriteReg(R13 (SP), 0x20000800)  returns 0x00 (0000ms, 2280ms total)
T1DE8 002:959 JLINK_WriteReg(R14, 0x20000001)  returns 0x00 (0000ms, 2280ms total)
T1DE8 002:959 JLINK_WriteReg(R15 (PC), 0x200000F4)  returns 0x00 (0000ms, 2280ms total)
T1DE8 002:959 JLINK_WriteReg(XPSR, 0x01000000)  returns 0x00 (0000ms, 2280ms total)
T1DE8 002:959 JLINK_WriteReg(MSP, 0x20000800)  returns 0x00 (0001ms, 2281ms total)
T1DE8 002:960 JLINK_WriteReg(PSP, 0x20000800)  returns 0x00 (0000ms, 2281ms total)
T1DE8 002:960 JLINK_WriteReg(CFBP, 0x00000000)  returns 0x00 (0000ms, 2281ms total)
T1DE8 002:960 JLINK_SetBPEx(Addr = 0x20000000, Type = 0xFFFFFFF2)  returns 0x0000000C (0000ms, 2281ms total)
T1DE8 002:960 JLINK_Go() -- CPU_ReadMem(4 bytes @ 0xE0001000) (0004ms, 2285ms total)
T1DE8 002:964 JLINK_IsHalted()  returns FALSE (0001ms, 2286ms total)
T1DE8 002:966 JLINK_IsHalted()  returns FALSE (0000ms, 2285ms total)
T1DE8 002:967 JLINK_IsHalted()  returns FALSE (0000ms, 2285ms total)
T1DE8 002:968 JLINK_IsHalted()  returns FALSE (0000ms, 2285ms total)
T1DE8 002:969 JLINK_IsHalted()  returns FALSE (0000ms, 2285ms total)
T1DE8 002:970 JLINK_IsHalted()  returns FALSE (0001ms, 2286ms total)
T1DE8 002:972 JLINK_IsHalted()  returns FALSE (0000ms, 2285ms total)
T1DE8 002:973 JLINK_IsHalted()  returns FALSE (0000ms, 2285ms total)
T1DE8 002:974 JLINK_IsHalted()  returns FALSE (0000ms, 2285ms total)
T1DE8 002:975 JLINK_IsHalted()  returns FALSE (0000ms, 2285ms total)
T1DE8 002:976 JLINK_IsHalted()  returns FALSE (0000ms, 2285ms total)
T1DE8 002:977 JLINK_IsHalted()  returns FALSE (0000ms, 2285ms total)
T1DE8 002:978 JLINK_IsHalted()  returns FALSE (0000ms, 2285ms total)
T1DE8 002:979 JLINK_IsHalted()  returns FALSE (0000ms, 2285ms total)
T1DE8 002:980 JLINK_IsHalted()  returns FALSE (0000ms, 2285ms total)
T1DE8 002:981 JLINK_IsHalted()  returns FALSE (0000ms, 2285ms total)
T1DE8 002:982 JLINK_IsHalted()  returns FALSE (0000ms, 2285ms total)
T1DE8 002:983 JLINK_IsHalted()  returns FALSE (0000ms, 2285ms total)
T1DE8 002:984 JLINK_IsHalted()  returns FALSE (0000ms, 2285ms total)
T1DE8 002:985 JLINK_IsHalted()  returns FALSE (0000ms, 2285ms total)
T1DE8 002:986 JLINK_IsHalted()  returns FALSE (0000ms, 2285ms total)
T1DE8 002:987 JLINK_IsHalted()  returns FALSE (0000ms, 2285ms total)
T1DE8 002:988 JLINK_IsHalted()  returns FALSE (0000ms, 2285ms total)
T1DE8 002:989 JLINK_IsHalted()  returns FALSE (0000ms, 2285ms total)
T1DE8 002:990 JLINK_IsHalted()  returns FALSE (0000ms, 2285ms total)
T1DE8 002:991 JLINK_IsHalted()  returns FALSE (0000ms, 2285ms total)
T1DE8 002:992 JLINK_IsHalted()  returns FALSE (0000ms, 2285ms total)
T1DE8 002:993 JLINK_IsHalted()  returns FALSE (0000ms, 2285ms total)
T1DE8 002:994 JLINK_IsHalted()  returns FALSE (0000ms, 2285ms total)
T1DE8 002:995 JLINK_IsHalted() -- CPU_ReadMem(2 bytes @ 0x20000000)  returns TRUE (0003ms, 2288ms total)
T1DE8 002:998 JLINK_ReadReg(R15 (PC))  returns 0x20000000 (0000ms, 2285ms total)
T1DE8 002:998 JLINK_ClrBPEx(BPHandle = 0x0000000C)  returns 0x00 (0000ms, 2285ms total)
T1DE8 002:998 JLINK_ReadReg(R0)  returns 0x00000000 (0001ms, 2286ms total)
T1DE8 002:999 JLINK_WriteMem(0x20000164, 0x029C Bytes, ...) - Data: 54 FB 40 F2 E6 51 FB 48 04 F0 A5 FC 10 BD F9 48 ... -- CPU_WriteMem(668 bytes @ 0x20000164)  returns 0x29C (0003ms, 2289ms total)
T1DE8 003:002 JLINK_WriteMem(0x20000400, 0x0164 Bytes, ...) - Data: 6C 48 90 F9 00 00 40 1C 40 B9 6A 48 00 23 AF F2 ... -- CPU_WriteMem(356 bytes @ 0x20000400)  returns 0x164 (0002ms, 2291ms total)
T1DE8 003:004 JLINK_WriteReg(R0, 0x08002000)  returns 0x00 (0001ms, 2292ms total)
T1DE8 003:005 JLINK_WriteReg(R1, 0x00000400)  returns 0x00 (0000ms, 2292ms total)
T1DE8 003:005 JLINK_WriteReg(R2, 0x20000164)  returns 0x00 (0000ms, 2292ms total)
T1DE8 003:005 JLINK_WriteReg(R3, 0x00000000)  returns 0x00 (0000ms, 2292ms total)
T1DE8 003:005 JLINK_WriteReg(R4, 0x00000000)  returns 0x00 (0000ms, 2292ms total)
T1DE8 003:005 JLINK_WriteReg(R5, 0x00000000)  returns 0x00 (0000ms, 2292ms total)
T1DE8 003:005 JLINK_WriteReg(R6, 0x00000000)  returns 0x00 (0000ms, 2292ms total)
T1DE8 003:005 JLINK_WriteReg(R7, 0x00000000)  returns 0x00 (0000ms, 2292ms total)
T1DE8 003:005 JLINK_WriteReg(R8, 0x00000000)  returns 0x00 (0000ms, 2292ms total)
T1DE8 003:005 JLINK_WriteReg(R9, 0x20000160)  returns 0x00 (0000ms, 2292ms total)
T1DE8 003:005 JLINK_WriteReg(R10, 0x00000000)  returns 0x00 (0000ms, 2292ms total)
T1DE8 003:005 JLINK_WriteReg(R11, 0x00000000)  returns 0x00 (0000ms, 2292ms total)
T1DE8 003:005 JLINK_WriteReg(R12, 0x00000000)  returns 0x00 (0000ms, 2292ms total)
T1DE8 003:006 JLINK_WriteReg(R13 (SP), 0x20000800)  returns 0x00 (0000ms, 2293ms total)
T1DE8 003:007 JLINK_WriteReg(R14, 0x20000001)  returns 0x00 (0000ms, 2293ms total)
T1DE8 003:007 JLINK_WriteReg(R15 (PC), 0x200000F4)  returns 0x00 (0000ms, 2293ms total)
